<Qucs Dataset 0.0.15>
<indep x 10>
  +5.00000000000e+00
  +1.00000000000e+01
  +1.50000000000e+01
  +2.00000000000e+01
  +2.50000000000e+01
  +3.00000000000e+01
  +3.50000000000e+01
  +4.00000000000e+01
  +4.50000000000e+01
  +5.00000000000e+01
</indep>
<dep V1.I x>
  -1.11111111111e-01
  -7.14285714286e-02
  -5.26315789474e-02
  -4.16666666667e-02
  -3.44827586207e-02
  -2.94117647059e-02
  -2.56410256410e-02
  -2.27272727273e-02
  -2.04081632653e-02
  -1.85185185185e-02
</dep>
<dep izeja.V x>
  +5.55555555556e-01
  +7.14285714286e-01
  +7.89473684211e-01
  +8.33333333333e-01
  +8.62068965517e-01
  +8.82352941176e-01
  +8.97435897436e-01
  +9.09090909091e-01
  +9.18367346939e-01
  +9.25925925926e-01
</dep>
<dep _net0.V x>
  +1.00000000000e+00
  +1.00000000000e+00
  +1.00000000000e+00
  +1.00000000000e+00
  +1.00000000000e+00
  +1.00000000000e+00
  +1.00000000000e+00
  +1.00000000000e+00
  +1.00000000000e+00
  +1.00000000000e+00
</dep>
